
**** 05/07/20 16:56:27 *********** Evaluation PSpice (Nov 1999) **************

 * C:\Users\ushio\OneDrive\study\uol\ELEC271\ex5\part2\op-amp.sch


 ****     CIRCUIT DESCRIPTION


******************************************************************************




* Schematics Version 9.1 - Web Update 1
* Thu May 07 16:56:26 2020



** Analysis setup **
.ac OCT 1000 .01 1e12
.OP 
.STMLIB "op-amp.stl"


* From [PSPICE NETLIST] section of pspiceev.ini:
.lib "nom.lib"

.INC "op-amp.net"

**** INCLUDING op-amp.net ****
* Schematics Netlist *



Q_Q4         $N_0002 $N_0001 $N_0003 Q2N2907A
Q_Q10         $N_0005 $N_0004 $N_0006 Q2N2222
Q_Q2         $N_0003 $N_0007 $N_0008 Q2N2907A
Q_Q1         $N_0007 $N_0007 $N_0005 Q2N2907A
V_V2         $N_0005 0 9V
V_V3         0 $N_0009 9V
Q_Q5         $N_0010 $N_0010 $N_0009 Q2N2222
Q_Q6         $N_0002 $N_0010 $N_0009 Q2N2222
Q_Q7         $N_0005 $N_0002 $N_0011 Q2N2222
Q_Q8         $N_0004 $N_0011 $N_0009 Q2N2222
Q_Q9         $N_0004 $N_0007 $N_0005 Q2N2907A
R_R3         $N_0009 $N_0011  460k  
R_R4         $N_0009 $N_0006  200k  
R_R1         $N_0009 $N_0007  17.4k  
R_R2         $N_0008 $N_0005  180  
Q_Q3         $N_0010 $N_0012 $N_0003 Q2N2907A
V_V7         $N_0013 0 -108.4u
V_V9         $N_0012 $N_0013 DC 0V AC 5u 
V_V10         $N_0001 0 DC 0V AC 5u 

**** RESUMING op-amp.cir ****
.INC "op-amp.als"



**** INCLUDING op-amp.als ****
* Schematics Aliases *

.ALIASES
Q_Q4            Q4(c=$N_0002 b=$N_0001 e=$N_0003 )
Q_Q10           Q10(c=$N_0005 b=$N_0004 e=$N_0006 )
Q_Q2            Q2(c=$N_0003 b=$N_0007 e=$N_0008 )
Q_Q1            Q1(c=$N_0007 b=$N_0007 e=$N_0005 )
V_V2            V2(+=$N_0005 -=0 )
V_V3            V3(+=0 -=$N_0009 )
Q_Q5            Q5(c=$N_0010 b=$N_0010 e=$N_0009 )
Q_Q6            Q6(c=$N_0002 b=$N_0010 e=$N_0009 )
Q_Q7            Q7(c=$N_0005 b=$N_0002 e=$N_0011 )
Q_Q8            Q8(c=$N_0004 b=$N_0011 e=$N_0009 )
Q_Q9            Q9(c=$N_0004 b=$N_0007 e=$N_0005 )
R_R3            R3(1=$N_0009 2=$N_0011 )
R_R4            R4(1=$N_0009 2=$N_0006 )
R_R1            R1(1=$N_0009 2=$N_0007 )
R_R2            R2(1=$N_0008 2=$N_0005 )
Q_Q3            Q3(c=$N_0010 b=$N_0012 e=$N_0003 )
V_V7            V7(+=$N_0013 -=0 )
V_V9            V9(+=$N_0012 -=$N_0013 )
V_V10           V10(+=$N_0001 -=0 )
.ENDALIASES


**** RESUMING op-amp.cir ****
.probe


.END

**** 05/07/20 16:56:27 *********** Evaluation PSpice (Nov 1999) **************

 * C:\Users\ushio\OneDrive\study\uol\ELEC271\ex5\part2\op-amp.sch


 ****     BJT MODEL PARAMETERS


******************************************************************************




               Q2N2907A        Q2N2222         
               PNP             NPN             
          IS  650.600000E-18   14.340000E-15 
          BF  231.7           255.9          
          NF    1               1            
         VAF  115.7            74.03         
         IKF    1.079            .2847       
         ISE   54.810000E-15   14.340000E-15 
          NE    1.829           1.307        
          BR    3.563           6.092        
          NR    1               1            
          RB   10              10            
          RC     .715           1            
         CJE   19.820000E-12   22.010000E-12 
         MJE     .3357           .377        
         CJC   14.760000E-12    7.306000E-12 
         MJC     .5383           .3416       
          TF  603.700000E-12  411.100000E-12 
         XTF    1.7             3            
         VTF    5               1.7          
         ITF     .65             .6          
          TR  111.300000E-09   46.910000E-09 
         XTB    1.5             1.5          
          CN    2.2             2.42         
           D     .52             .87         


**** 05/07/20 16:56:27 *********** Evaluation PSpice (Nov 1999) **************

 * C:\Users\ushio\OneDrive\study\uol\ELEC271\ex5\part2\op-amp.sch


 ****     SMALL SIGNAL BIAS SOLUTION       TEMPERATURE =   27.000 DEG C


******************************************************************************



 NODE   VOLTAGE     NODE   VOLTAGE     NODE   VOLTAGE     NODE   VOLTAGE


($N_0001)    0.0000                   ($N_0002)   -7.8412                       

($N_0003)     .6670                   ($N_0004)     .5682                       

($N_0005)    9.0000                   ($N_0006)     .0057                       

($N_0007)    8.2746                   ($N_0008)    8.9598                       

($N_0009)   -9.0000                   ($N_0010)   -8.4115                       

($N_0011)   -8.3558                   ($N_0012)-108.4E-06                       

($N_0013)-108.4E-06                   




    VOLTAGE SOURCE CURRENTS
    NAME         CURRENT

    V_V2        -2.316E-03
    V_V3        -2.314E-03
    V_V7         5.198E-07
    V_V9         5.198E-07
    V_V10        5.177E-07

    TOTAL POWER DISSIPATION   4.17E-02  WATTS


**** 05/07/20 16:56:27 *********** Evaluation PSpice (Nov 1999) **************

 * C:\Users\ushio\OneDrive\study\uol\ELEC271\ex5\part2\op-amp.sch


 ****     OPERATING POINT INFORMATION      TEMPERATURE =   27.000 DEG C


******************************************************************************






**** BIPOLAR JUNCTION TRANSISTORS


NAME         Q_Q4        Q_Q10       Q_Q2        Q_Q1        Q_Q5      
MODEL        Q2N2907A    Q2N2222     Q2N2907A    Q2N2907A    Q2N2222   
IB          -5.18E-07    3.99E-07   -1.01E-06   -4.50E-06    9.48E-07 
IC          -1.10E-04    4.46E-05   -2.22E-04   -9.83E-04    1.09E-04 
VBE         -6.67E-01    5.63E-01   -6.85E-01   -7.25E-01    5.89E-01 
VBC          7.84E+00   -8.43E+00    7.61E+00    0.00E+00    0.00E+00 
VCE         -8.51E+00    8.99E+00   -8.29E+00   -7.25E-01    5.89E-01 
BETADC       2.13E+02    1.12E+02    2.21E+02    2.19E+02    1.15E+02 
GM           4.25E-03    1.72E-03    8.58E-03    3.80E-02    4.22E-03 
RPI          5.34E+04    7.57E+04    2.70E+04    5.90E+03    3.13E+04 
RX           1.00E+01    1.00E+01    1.00E+01    1.00E+01    1.00E+01 
RO           1.12E+06    1.85E+06    5.55E+05    1.18E+05    6.78E+05 
CBE          3.41E-11    3.47E-11    3.71E-11    5.58E-11    3.65E-11 
CBC          3.97E-12    3.11E-12    4.03E-12    1.48E-11    7.31E-12 
CJS          0.00E+00    0.00E+00    0.00E+00    0.00E+00    0.00E+00 
BETAAC       2.27E+02    1.31E+02    2.32E+02    2.24E+02    1.32E+02 
CBX/CBX2     0.00E+00    0.00E+00    0.00E+00    0.00E+00    0.00E+00 
FT/FT2       1.78E+07    7.26E+06    3.32E+07    8.56E+07    1.53E+07 



NAME         Q_Q6        Q_Q7        Q_Q8        Q_Q9        Q_Q3      
MODEL        Q2N2222     Q2N2222     Q2N2222     Q2N2907A    Q2N2907A  
IB           9.48E-07    8.30E-08    6.37E-06   -4.50E-06   -5.20E-07 
IC           1.10E-04    7.69E-06    1.05E-03   -1.05E-03   -1.11E-04 
VBE          5.89E-01    5.15E-01    6.44E-01   -7.25E-01   -6.67E-01 
VBC         -5.70E-01   -1.68E+01   -8.92E+00    7.71E+00    8.41E+00 
VCE          1.16E+00    1.74E+01    9.57E+00   -8.43E+00   -9.08E+00 
BETADC       1.16E+02    9.26E+01    1.65E+02    2.33E+02    2.14E+02 
GM           4.25E-03    2.97E-04    4.04E-02    4.05E-02    4.29E-03 
RPI          3.13E+04    3.74E+05    4.51E+03    5.90E+03    5.31E+04 
RX           1.00E+01    1.00E+01    1.00E+01    1.00E+01    1.00E+01 
RO           6.78E+05    1.18E+07    7.92E+04    1.18E+05    1.12E+06 
CBE          3.65E-11    3.27E-11    5.29E-11    5.73E-11    3.41E-11 
CBC          6.02E-12    2.49E-12    3.05E-12    4.01E-12    3.84E-12 
CJS          0.00E+00    0.00E+00    0.00E+00    0.00E+00    0.00E+00 
BETAAC       1.33E+02    1.11E+02    1.82E+02    2.39E+02    2.28E+02 
CBX/CBX2     0.00E+00    0.00E+00    0.00E+00    0.00E+00    0.00E+00 
FT/FT2       1.59E+07    1.34E+06    1.15E+08    1.05E+08    1.80E+07 



          JOB CONCLUDED

          TOTAL JOB TIME            2.55
